T38F0 000:033.027   SEGGER J-Link V6.86 Log File
T38F0 000:033.158   DLL Compiled: Sep 24 2020 17:31:31
T38F0 000:033.164   Logging started @ 2023-11-07 05:49
T38F0 000:033.180 - 33.183ms
T38F0 000:033.192 JLINK_SetWarnOutHandler(...)
T38F0 000:033.213 - 0.023ms
T38F0 000:033.221 JLINK_OpenEx(...)
T38F0 000:034.864   Firmware: J-Link ARM-OB STM32 compiled Aug 22 2012 19:52:04
T38F0 000:037.612   Hardware: V7.00
T38F0 000:037.629   S/N: 20171214
T38F0 000:037.635   OEM: SEGGER
T38F0 000:037.642   Feature(s): RDI,FlashDL,FlashBP,JFlash,GDBFull
T38F0 000:038.507   TELNET listener socket opened on port 19021
T38F0 000:038.620   WEBSRV Starting webserver
T38F0 000:038.787   WEBSRV Webserver running on local port 19080
T38F0 000:038.796 - 5.577ms returns "O.K."
T38F0 000:038.811 JLINK_GetEmuCaps()
T38F0 000:038.817 - 0.009ms returns 0x88EA5833
T38F0 000:038.827 JLINK_TIF_GetAvailable(...)
T38F0 000:039.010 - 0.187ms
T38F0 000:039.019 JLINK_SetErrorOutHandler(...)
T38F0 000:039.023 - 0.006ms
T38F0 000:039.044 JLINK_ExecCommand("ProjectFile = "D:\test\stm32\RoboMaster_slave_device\USER\JLinkSettings.ini"", ...). 
T38F0 000:046.302   Device "ARM7" selected.
T38F0 000:046.536 - 7.498ms returns 0x00
T38F0 000:046.565 JLINK_ExecCommand("Device = STM32F427IITx", ...). 
T38F0 000:047.017   Device "STM32F427II" selected.
T38F0 000:050.996 - 4.434ms returns 0x00
T38F0 000:051.032 JLINK_GetHardwareVersion()
T38F0 000:051.037 - 0.007ms returns 70000
T38F0 000:051.057 JLINK_GetDLLVersion()
T38F0 000:051.062 - 0.007ms returns 68600
T38F0 000:051.067 JLINK_GetOEMString(...)
T38F0 000:051.073 JLINK_GetFirmwareString(...)
T38F0 000:051.077 - 0.006ms
T38F0 000:051.108 JLINK_GetDLLVersion()
T38F0 000:051.113 - 0.006ms returns 68600
T38F0 000:051.118 JLINK_GetCompileDateTime()
T38F0 000:051.122 - 0.006ms
T38F0 000:051.132 JLINK_GetFirmwareString(...)
T38F0 000:051.136 - 0.006ms
T38F0 000:051.144 JLINK_GetHardwareVersion()
T38F0 000:051.149 - 0.006ms returns 70000
T38F0 000:051.157 JLINK_GetSN()
T38F0 000:051.161 - 0.006ms returns 20171214
T38F0 000:051.169 JLINK_GetOEMString(...)
T38F0 000:051.182 JLINK_TIF_Select(JLINKARM_TIF_SWD)
T38F0 000:052.328 - 1.154ms returns 0x00
T38F0 000:052.341 JLINK_HasError()
T38F0 000:052.358 JLINK_SetSpeed(5000)
T38F0 000:052.600 - 0.248ms
T38F0 000:052.612 JLINK_GetId()
T38F0 000:054.155   Found SW-DP with ID 0x2BA01477
T38F0 000:069.654   Found SW-DP with ID 0x2BA01477
T38F0 000:072.540   Old FW that does not support reading DPIDR via DAP jobs
T38F0 000:075.882   Unknown DP version. Assuming DPv0
T38F0 000:075.910   Scanning AP map to find all available APs
T38F0 000:078.209   AP[1]: Stopped AP scan as end of AP map has been reached
T38F0 000:078.219   AP[0]: AHB-AP (IDR: 0x24770011)
T38F0 000:078.228   Iterating through AP map to find AHB-AP to use
T38F0 000:082.223   AP[0]: Core found
T38F0 000:082.236   AP[0]: AHB-AP ROM base: 0xE00FF000
T38F0 000:084.140   CPUID register: 0x410FC241. Implementer code: 0x41 (ARM)
T38F0 000:084.150   Found Cortex-M4 r0p1, Little endian.
T38F0 000:185.783   -- Max. mem block: 0x00002C18
T38F0 000:185.876   CPU_ReadMem(4 bytes @ 0xE000EDF0)
T38F0 000:186.940   CPU_ReadMem(4 bytes @ 0xE0002000)
T38F0 000:187.696   FPUnit: 6 code (BP) slots and 2 literal slots
T38F0 000:187.738   CPU_ReadMem(4 bytes @ 0xE000EDFC)
T38F0 000:188.485   CPU_WriteMem(4 bytes @ 0xE000EDFC)
T38F0 000:189.246   CPU_ReadMem(4 bytes @ 0xE0001000)
T38F0 000:189.933   CPU_WriteMem(4 bytes @ 0xE0001000)
T38F0 000:190.764   CPU_ReadMem(4 bytes @ 0xE000ED88)
T38F0 000:191.473   CPU_WriteMem(4 bytes @ 0xE000ED88)
T38F0 000:192.259   CPU_ReadMem(4 bytes @ 0xE000ED88)
T38F0 000:192.918   CPU_WriteMem(4 bytes @ 0xE000ED88)
T38F0 000:193.643   CoreSight components:
T38F0 000:193.676   ROMTbl[0] @ E00FF000
T38F0 000:193.693   CPU_ReadMem(64 bytes @ 0xE00FF000)
T38F0 000:194.969   CPU_ReadMem(32 bytes @ 0xE000EFE0)
T38F0 000:195.884   ROMTbl[0][0]: E000E000, CID: B105E00D, PID: 000BB00C SCS-M7
T38F0 000:195.911   CPU_ReadMem(32 bytes @ 0xE0001FE0)
T38F0 000:196.922   ROMTbl[0][1]: E0001000, CID: B105E00D, PID: 003BB002 DWT
T38F0 000:196.949   CPU_ReadMem(32 bytes @ 0xE0002FE0)
T38F0 000:197.819   ROMTbl[0][2]: E0002000, CID: B105E00D, PID: 002BB003 FPB
T38F0 000:197.847   CPU_ReadMem(32 bytes @ 0xE0000FE0)
T38F0 000:198.903   ROMTbl[0][3]: E0000000, CID: B105E00D, PID: 003BB001 ITM
T38F0 000:198.932   CPU_ReadMem(32 bytes @ 0xE0040FE0)
T38F0 000:199.891   ROMTbl[0][4]: E0040000, CID: B105900D, PID: 000BB9A1 TPIU
T38F0 000:199.934   CPU_ReadMem(32 bytes @ 0xE0041FE0)
T38F0 000:200.845   ROMTbl[0][5]: E0041000, CID: B105900D, PID: 000BB925 ETM
T38F0 000:201.838 - 149.236ms returns 0x2BA01477
T38F0 000:201.866 JLINK_GetDLLVersion()
T38F0 000:201.872 - 0.009ms returns 68600
T38F0 000:201.879 JLINK_CORE_GetFound()
T38F0 000:201.885 - 0.008ms returns 0xE0000FF
T38F0 000:201.892 JLINK_GetDebugInfo(0x100 = JLINKARM_ROM_TABLE_ADDR_INDEX)
T38F0 000:201.899   Value=0xE00FF000
T38F0 000:201.908 - 0.018ms returns 0
T38F0 000:201.940 JLINK_GetDebugInfo(0x100 = JLINKARM_ROM_TABLE_ADDR_INDEX)
T38F0 000:201.946   Value=0xE00FF000
T38F0 000:201.954 - 0.016ms returns 0
T38F0 000:201.960 JLINK_GetDebugInfo(0x101 = JLINKARM_DEBUG_INFO_ETM_ADDR_INDEX)
T38F0 000:201.966   Value=0xE0041000
T38F0 000:201.974 - 0.016ms returns 0
T38F0 000:201.991 JLINK_ReadMemEx(0xE0041FD0, 0x20 Bytes, Flags = 0x02000004)
T38F0 000:202.035   CPU_ReadMem(32 bytes @ 0xE0041FD0)
T38F0 000:203.009   Data:  04 00 00 00 00 00 00 00 00 00 00 00 00 00 00 00 ...
T38F0 000:203.035 - 1.046ms returns 32 (0x20)
T38F0 000:203.049 JLINK_GetDebugInfo(0x102 = JLINKARM_DEBUG_INFO_MTB_ADDR_INDEX)
T38F0 000:203.054   Value=0x00000000
T38F0 000:203.060 - 0.012ms returns 0
T38F0 000:203.065 JLINK_GetDebugInfo(0x103 = JLINKARM_DEBUG_INFO_TPIU_ADDR_INDEX)
T38F0 000:203.069   Value=0xE0040000
T38F0 000:203.074 - 0.011ms returns 0
T38F0 000:203.079 JLINK_GetDebugInfo(0x104 = JLINKARM_DEBUG_INFO_ITM_ADDR_INDEX)
T38F0 000:203.083   Value=0xE0000000
T38F0 000:203.089 - 0.011ms returns 0
T38F0 000:203.093 JLINK_GetDebugInfo(0x105 = JLINKARM_DEBUG_INFO_DWT_ADDR_INDEX)
T38F0 000:203.097   Value=0xE0001000
T38F0 000:203.103 - 0.011ms returns 0
T38F0 000:203.108 JLINK_GetDebugInfo(0x106 = JLINKARM_DEBUG_INFO_FPB_ADDR_INDEX)
T38F0 000:203.112   Value=0xE0002000
T38F0 000:203.117 - 0.011ms returns 0
T38F0 000:203.122 JLINK_GetDebugInfo(0x107 = JLINKARM_DEBUG_INFO_NVIC_ADDR_INDEX)
T38F0 000:203.126   Value=0xE000E000
T38F0 000:203.131 - 0.011ms returns 0
T38F0 000:203.137 JLINK_GetDebugInfo(0x10C = JLINKARM_DEBUG_INFO_DBG_ADDR_INDEX)
T38F0 000:203.141   Value=0xE000EDF0
T38F0 000:203.146 - 0.011ms returns 0
T38F0 000:203.151 JLINK_GetDebugInfo(0x01 = Unknown)
T38F0 000:203.155   Value=0x00000001
T38F0 000:203.161 - 0.011ms returns 0
T38F0 000:203.175 JLINK_ReadMemU32(0xE000ED00, 0x1 Items)
T38F0 000:203.188   CPU_ReadMem(4 bytes @ 0xE000ED00)
T38F0 000:203.836   Data:  41 C2 0F 41
T38F0 000:203.847   Debug reg: CPUID
T38F0 000:203.853 - 0.680ms returns 1 (0x1)
T38F0 000:203.861 JLINK_GetDebugInfo(0x10F = JLINKARM_DEBUG_INFO_HAS_CORTEX_M_SECURITY_EXT_INDEX)
T38F0 000:203.865   Value=0x00000000
T38F0 000:203.871 - 0.012ms returns 0
T38F0 000:203.876 JLINK_HasError()
T38F0 000:203.881 JLINK_SetResetType(JLINKARM_CM3_RESET_TYPE_NORMAL)
T38F0 000:203.885 - 0.006ms returns JLINKARM_CM3_RESET_TYPE_NORMAL
T38F0 000:203.890 JLINK_Reset()
T38F0 000:203.913   CPU is running
T38F0 000:203.921   CPU_WriteMem(4 bytes @ 0xE000EDF0)
T38F0 000:204.632   CPU is running
T38F0 000:204.689   CPU_WriteMem(4 bytes @ 0xE000EDFC)
T38F0 000:205.452   Reset: Halt core after reset via DEMCR.VC_CORERESET.
T38F0 000:206.104   Reset: Reset device via AIRCR.SYSRESETREQ.
T38F0 000:206.143   CPU is running
T38F0 000:206.153   CPU_WriteMem(4 bytes @ 0xE000ED0C)
T38F0 000:260.437   CPU_ReadMem(4 bytes @ 0xE000EDF0)
T38F0 000:261.122   CPU_ReadMem(4 bytes @ 0xE000EDF0)
T38F0 000:261.748   CPU is running
T38F0 000:261.773   CPU_WriteMem(4 bytes @ 0xE000EDF0)
T38F0 000:262.469   CPU is running
T38F0 000:262.493   CPU_WriteMem(4 bytes @ 0xE000EDFC)
T38F0 000:268.638   CPU_ReadMem(4 bytes @ 0xE000EDF0)
T38F0 000:272.920   CPU_WriteMem(4 bytes @ 0xE0002000)
T38F0 000:273.612   CPU_ReadMem(4 bytes @ 0xE000EDFC)
T38F0 000:274.306   CPU_ReadMem(4 bytes @ 0xE0001000)
T38F0 000:275.027 - 71.150ms
T38F0 000:275.056 JLINK_HasError()
T38F0 000:275.067 JLINK_ReadReg(R15 (PC))
T38F0 000:275.093 - 0.030ms returns 0x0800026C
T38F0 000:275.103 JLINK_ReadReg(XPSR)
T38F0 000:275.110 - 0.011ms returns 0x01000000
T38F0 000:275.120 JLINK_Halt()
T38F0 000:275.127 - 0.010ms returns 0x00
T38F0 000:275.249 JLINK_ReadMemU32(0xE000EDF0, 0x1 Items)
T38F0 000:275.277   CPU_ReadMem(4 bytes @ 0xE000EDF0)
T38F0 000:275.937   Data:  03 00 03 00
T38F0 000:275.957   Debug reg: DHCSR
T38F0 000:275.967 - 0.722ms returns 1 (0x1)
T38F0 000:275.992 JLINK_WriteU32_64(0xE000EDF0, 0xA05F0003)
T38F0 000:276.003   Debug reg: DHCSR
T38F0 000:276.034   CPU_WriteMem(4 bytes @ 0xE000EDF0)
T38F0 000:276.723 - 0.744ms returns 0 (0x00000000)
T38F0 000:276.745 JLINK_WriteU32_64(0xE000EDFC, 0x01000000)
T38F0 000:276.753   Debug reg: DEMCR
T38F0 000:276.772   CPU_WriteMem(4 bytes @ 0xE000EDFC)
T38F0 000:277.605 - 0.889ms returns 0 (0x00000000)
T38F0 000:277.692 JLINK_GetHWStatus(...)
T38F0 000:278.094 - 0.415ms returns 0
T38F0 000:278.155 JLINK_GetNumBPUnits(Type = 0xFFFFFF00)
T38F0 000:278.165 - 0.014ms returns 0x06
T38F0 000:278.174 JLINK_GetNumBPUnits(Type = 0xF0)
T38F0 000:278.182 - 0.011ms returns 0x2000
T38F0 000:278.190 JLINK_GetNumWPUnits()
T38F0 000:278.198 - 0.011ms returns 4
T38F0 000:278.219 JLINK_GetSpeed()
T38F0 000:278.226 - 0.011ms returns 4000
T38F0 000:278.242 JLINK_ReadMemU32(0xE000E004, 0x1 Items)
T38F0 000:278.262   CPU_ReadMem(4 bytes @ 0xE000E004)
T38F0 000:278.964   Data:  02 00 00 00
T38F0 000:278.997 - 0.759ms returns 1 (0x1)
T38F0 000:279.011 JLINK_ReadMemU32(0xE000E004, 0x1 Items)
T38F0 000:279.030   CPU_ReadMem(4 bytes @ 0xE000E004)
T38F0 000:279.696   Data:  02 00 00 00
T38F0 000:279.717 - 0.710ms returns 1 (0x1)
T38F0 000:279.730 JLINK_WriteMemEx(0xE0001000, 0x0000001C Bytes, Flags = 0x02000004)
T38F0 000:279.739   Data:  01 00 00 00 00 00 00 00 00 00 00 00 00 00 00 00 ...
T38F0 000:280.117   CPU_WriteMem(28 bytes @ 0xE0001000)
T38F0 000:281.642 - 1.941ms returns 0x1C
T38F0 000:281.685 JLINK_HasError()
T38F0 000:281.698 JLINK_ReadReg(R15 (PC))
T38F0 000:281.714 - 0.020ms returns 0x0800026C
T38F0 000:281.724 JLINK_ReadReg(XPSR)
T38F0 000:281.732 - 0.011ms returns 0x01000000
T38F0 000:284.641 JLINK_ReadMemEx(0xE0001004, 0x4 Bytes, Flags = 0x02000000)
T38F0 000:284.661   Data:  00 00 00 00
T38F0 000:284.670   Debug reg: DWT_CYCCNT
T38F0 000:284.678 - 0.039ms returns 4 (0x4)
T38F0 000:357.662 JLINK_HasError()
T38F0 000:357.692 JLINK_SetResetType(JLINKARM_CM3_RESET_TYPE_NORMAL)
T38F0 000:357.700 - 0.009ms returns JLINKARM_CM3_RESET_TYPE_NORMAL
T38F0 000:357.706 JLINK_Reset()
T38F0 000:357.723   CPU_WriteMem(4 bytes @ 0xE000EDF0)
T38F0 000:358.348   CPU_WriteMem(4 bytes @ 0xE000EDFC)
T38F0 000:359.113   Reset: Halt core after reset via DEMCR.VC_CORERESET.
T38F0 000:360.028   Reset: Reset device via AIRCR.SYSRESETREQ.
T38F0 000:360.048   CPU_WriteMem(4 bytes @ 0xE000ED0C)
T38F0 000:413.771   CPU_ReadMem(4 bytes @ 0xE000EDF0)
T38F0 000:414.483   CPU_ReadMem(4 bytes @ 0xE000EDF0)
T38F0 000:415.028   CPU_WriteMem(4 bytes @ 0xE000EDF0)
T38F0 000:415.700   CPU_WriteMem(4 bytes @ 0xE000EDFC)
T38F0 000:422.034   CPU_ReadMem(4 bytes @ 0xE000EDF0)
T38F0 000:426.332   CPU_WriteMem(4 bytes @ 0xE0002000)
T38F0 000:427.067   CPU_ReadMem(4 bytes @ 0xE000EDFC)
T38F0 000:427.792   CPU_ReadMem(4 bytes @ 0xE0001000)
T38F0 000:429.023 - 71.330ms
T38F0 000:429.096 JLINK_HasError()
T38F0 000:429.108 JLINK_ReadReg(R15 (PC))
T38F0 000:429.142 - 0.036ms returns 0x0800026C
T38F0 000:429.149 JLINK_ReadReg(XPSR)
T38F0 000:429.156 - 0.009ms returns 0x01000000
T38F0 000:429.603 JLINK_ReadMemEx(0x0800026C, 0x3C Bytes, Flags = 0x02000000)
T38F0 000:429.621   CPU_ReadMem(128 bytes @ 0x08000240)
T38F0 000:431.739    -- Updating C cache (128 bytes @ 0x08000240)
T38F0 000:431.778    -- Read from C cache (60 bytes @ 0x0800026C)
T38F0 000:431.789   Data:  09 48 80 47 09 48 00 47 FE E7 FE E7 FE E7 FE E7 ...
T38F0 000:431.797 - 2.197ms returns 60 (0x3C)
T38F0 000:431.810 JLINK_ReadMemEx(0x0800026C, 0x2 Bytes, Flags = 0x02000000)
T38F0 000:431.819    -- Read from C cache (2 bytes @ 0x0800026C)
T38F0 000:431.827   Data:  09 48
T38F0 000:431.835 - 0.028ms returns 2 (0x2)
T38F0 000:431.898 JLINK_ReadMemEx(0x0800026E, 0x2 Bytes, Flags = 0x02000000)
T38F0 000:431.905    -- Read from C cache (2 bytes @ 0x0800026E)
T38F0 000:431.913   Data:  80 47
T38F0 000:431.921 - 0.025ms returns 2 (0x2)
T38F0 000:431.946 JLINK_ReadMemEx(0x0800026E, 0x2 Bytes, Flags = 0x02000000)
T38F0 000:431.953    -- Read from C cache (2 bytes @ 0x0800026E)
T38F0 000:431.961   Data:  80 47
T38F0 000:431.968 - 0.025ms returns 2 (0x2)
T38F0 000:431.975 JLINK_ReadMemEx(0x08000270, 0x3C Bytes, Flags = 0x02000000)
T38F0 000:431.982    -- Read from C cache (60 bytes @ 0x08000270)
T38F0 000:431.990   Data:  09 48 00 47 FE E7 FE E7 FE E7 FE E7 FE E7 FE E7 ...
T38F0 000:431.998 - 0.025ms returns 60 (0x3C)
T38F0 000:432.005 JLINK_ReadMemEx(0x08000270, 0x2 Bytes, Flags = 0x02000000)
T38F0 000:432.011    -- Read from C cache (2 bytes @ 0x08000270)
T38F0 000:432.019   Data:  09 48
T38F0 000:432.027 - 0.025ms returns 2 (0x2)
T38F0 001:260.553 JLINK_ReadMemEx(0x08000270, 0x3C Bytes, Flags = 0x02000000)
T38F0 001:260.580    -- Read from C cache (60 bytes @ 0x08000270)
T38F0 001:260.588   Data:  09 48 00 47 FE E7 FE E7 FE E7 FE E7 FE E7 FE E7 ...
T38F0 001:260.594 - 0.042ms returns 60 (0x3C)
T38F0 001:260.599 JLINK_ReadMemEx(0x08000270, 0x2 Bytes, Flags = 0x02000000)
T38F0 001:260.604    -- Read from C cache (2 bytes @ 0x08000270)
T38F0 001:260.609   Data:  09 48
T38F0 001:260.615 - 0.018ms returns 2 (0x2)
T38F0 001:260.620 JLINK_ReadMemEx(0x08000272, 0x2 Bytes, Flags = 0x02000000)
T38F0 001:260.625    -- Read from C cache (2 bytes @ 0x08000272)
T38F0 001:260.630   Data:  00 47
T38F0 001:260.636 - 0.017ms returns 2 (0x2)
T38F0 001:403.338 JLINK_HasError()
T38F0 001:403.356 JLINK_ReadReg(R0)
T38F0 001:403.965 - 0.617ms returns 0x00000000
T38F0 001:403.978 JLINK_ReadReg(R1)
T38F0 001:403.983 - 0.006ms returns 0x00000000
T38F0 001:403.988 JLINK_ReadReg(R2)
T38F0 001:403.992 - 0.006ms returns 0x00000000
T38F0 001:403.996 JLINK_ReadReg(R3)
T38F0 001:404.000 - 0.005ms returns 0x00000000
T38F0 001:404.005 JLINK_ReadReg(R4)
T38F0 001:404.009 - 0.006ms returns 0x00000000
T38F0 001:404.014 JLINK_ReadReg(R5)
T38F0 001:404.018 - 0.005ms returns 0x00000000
T38F0 001:404.022 JLINK_ReadReg(R6)
T38F0 001:404.026 - 0.005ms returns 0x00000000
T38F0 001:404.030 JLINK_ReadReg(R7)
T38F0 001:404.034 - 0.005ms returns 0x00000000
T38F0 001:404.039 JLINK_ReadReg(R8)
T38F0 001:404.055 - 0.017ms returns 0x00000000
T38F0 001:404.060 JLINK_ReadReg(R9)
T38F0 001:404.064 - 0.005ms returns 0x00000000
T38F0 001:404.068 JLINK_ReadReg(R10)
T38F0 001:404.072 - 0.005ms returns 0x00000000
T38F0 001:404.076 JLINK_ReadReg(R11)
T38F0 001:404.080 - 0.006ms returns 0x00000000
T38F0 001:404.085 JLINK_ReadReg(R12)
T38F0 001:404.089 - 0.005ms returns 0x00000000
T38F0 001:404.093 JLINK_ReadReg(R13 (SP))
T38F0 001:404.098 - 0.006ms returns 0x20004220
T38F0 001:404.102 JLINK_ReadReg(R14)
T38F0 001:404.107 - 0.006ms returns 0xFFFFFFFF
T38F0 001:404.111 JLINK_ReadReg(R15 (PC))
T38F0 001:404.115 - 0.006ms returns 0x0800026C
T38F0 001:404.120 JLINK_ReadReg(XPSR)
T38F0 001:404.124 - 0.006ms returns 0x01000000
T38F0 001:404.129 JLINK_ReadReg(MSP)
T38F0 001:404.133 - 0.006ms returns 0x20004220
T38F0 001:404.137 JLINK_ReadReg(PSP)
T38F0 001:404.141 - 0.006ms returns 0x00000000
T38F0 001:404.146 JLINK_ReadReg(CFBP)
T38F0 001:404.150 - 0.006ms returns 0x00000000
T38F0 001:404.155 JLINK_ReadReg(FPSCR)
T38F0 001:409.699 - 5.569ms returns 0x00000000
T38F0 001:409.731 JLINK_ReadReg(FPS0)
T38F0 001:409.758 - 0.029ms returns 0x00000000
T38F0 001:409.763 JLINK_ReadReg(FPS1)
T38F0 001:409.811 - 0.052ms returns 0x00000000
T38F0 001:409.819 JLINK_ReadReg(FPS2)
T38F0 001:409.823 - 0.006ms returns 0x00000000
T38F0 001:409.827 JLINK_ReadReg(FPS3)
T38F0 001:409.831 - 0.006ms returns 0x00000000
T38F0 001:409.836 JLINK_ReadReg(FPS4)
T38F0 001:409.840 - 0.005ms returns 0x00000000
T38F0 001:409.845 JLINK_ReadReg(FPS5)
T38F0 001:409.849 - 0.006ms returns 0x00000000
T38F0 001:409.853 JLINK_ReadReg(FPS6)
T38F0 001:409.857 - 0.006ms returns 0x00000000
T38F0 001:409.862 JLINK_ReadReg(FPS7)
T38F0 001:409.866 - 0.006ms returns 0x00000000
T38F0 001:409.870 JLINK_ReadReg(FPS8)
T38F0 001:409.874 - 0.006ms returns 0x00000000
T38F0 001:409.879 JLINK_ReadReg(FPS9)
T38F0 001:409.883 - 0.005ms returns 0x00000000
T38F0 001:409.888 JLINK_ReadReg(FPS10)
T38F0 001:409.891 - 0.005ms returns 0x00000000
T38F0 001:409.896 JLINK_ReadReg(FPS11)
T38F0 001:409.900 - 0.005ms returns 0x00000000
T38F0 001:409.904 JLINK_ReadReg(FPS12)
T38F0 001:409.908 - 0.005ms returns 0x00000000
T38F0 001:409.913 JLINK_ReadReg(FPS13)
T38F0 001:409.917 - 0.005ms returns 0x00000000
T38F0 001:409.921 JLINK_ReadReg(FPS14)
T38F0 001:409.926 - 0.006ms returns 0x00000000
T38F0 001:409.930 JLINK_ReadReg(FPS15)
T38F0 001:409.934 - 0.005ms returns 0x00000000
T38F0 001:409.938 JLINK_ReadReg(FPS16)
T38F0 001:409.942 - 0.005ms returns 0x00000000
T38F0 001:409.947 JLINK_ReadReg(FPS17)
T38F0 001:409.951 - 0.005ms returns 0x00000000
T38F0 001:409.956 JLINK_ReadReg(FPS18)
T38F0 001:409.959 - 0.005ms returns 0x00000000
T38F0 001:409.964 JLINK_ReadReg(FPS19)
T38F0 001:409.968 - 0.005ms returns 0x00000000
T38F0 001:409.973 JLINK_ReadReg(FPS20)
T38F0 001:409.977 - 0.005ms returns 0x00000000
T38F0 001:409.981 JLINK_ReadReg(FPS21)
T38F0 001:409.985 - 0.006ms returns 0x00000000
T38F0 001:409.990 JLINK_ReadReg(FPS22)
T38F0 001:409.994 - 0.006ms returns 0x00000000
T38F0 001:409.998 JLINK_ReadReg(FPS23)
T38F0 001:410.002 - 0.005ms returns 0x00000000
T38F0 001:410.007 JLINK_ReadReg(FPS24)
T38F0 001:410.011 - 0.005ms returns 0x00000000
T38F0 001:410.015 JLINK_ReadReg(FPS25)
T38F0 001:410.019 - 0.006ms returns 0x00000000
T38F0 001:410.024 JLINK_ReadReg(FPS26)
T38F0 001:410.028 - 0.006ms returns 0x00000000
T38F0 001:410.032 JLINK_ReadReg(FPS27)
T38F0 001:410.036 - 0.005ms returns 0x00000000
T38F0 001:410.041 JLINK_ReadReg(FPS28)
T38F0 001:410.045 - 0.006ms returns 0x00000000
T38F0 001:410.049 JLINK_ReadReg(FPS29)
T38F0 001:410.053 - 0.005ms returns 0x00000000
T38F0 001:410.058 JLINK_ReadReg(FPS30)
T38F0 001:410.062 - 0.006ms returns 0x00000000
T38F0 001:410.067 JLINK_ReadReg(FPS31)
T38F0 001:410.071 - 0.005ms returns 0x00000000
T38F0 001:442.539 JLINK_ReadMemEx(0x200001BC, 0x4 Bytes, Flags = 0x02000000)
T38F0 001:442.575   CPU_ReadMem(64 bytes @ 0x20000180)
T38F0 001:443.910    -- Updating C cache (64 bytes @ 0x20000180)
T38F0 001:443.937    -- Read from C cache (4 bytes @ 0x200001BC)
T38F0 001:443.944   Data:  00 00 00 00
T38F0 001:443.950 - 1.413ms returns 4 (0x4)
T38F0 001:444.132 JLINK_ReadMemEx(0x200001BC, 0x4 Bytes, Flags = 0x02000000)
T38F0 001:444.143    -- Read from C cache (4 bytes @ 0x200001BC)
T38F0 001:444.148   Data:  00 00 00 00
T38F0 001:444.154 - 0.023ms returns 4 (0x4)
T38F0 001:444.180 JLINK_ReadMemEx(0x200001BC, 0x4 Bytes, Flags = 0x02000000)
T38F0 001:444.185    -- Read from C cache (4 bytes @ 0x200001BC)
T38F0 001:444.191   Data:  00 00 00 00
T38F0 001:444.196 - 0.018ms returns 4 (0x4)
T38F0 001:467.446 JLINK_ReadMemEx(0x20000248, 0x2 Bytes, Flags = 0x02000000)
T38F0 001:467.501   CPU_ReadMem(64 bytes @ 0x20000240)
T38F0 001:468.731    -- Updating C cache (64 bytes @ 0x20000240)
T38F0 001:468.751    -- Read from C cache (2 bytes @ 0x20000248)
T38F0 001:468.758   Data:  02 00
T38F0 001:468.764 - 1.320ms returns 2 (0x2)
T38F0 001:468.879 JLINK_ReadMemEx(0x20000248, 0x2 Bytes, Flags = 0x02000000)
T38F0 001:468.888    -- Read from C cache (2 bytes @ 0x20000248)
T38F0 001:468.894   Data:  02 00
T38F0 001:468.900 - 0.023ms returns 2 (0x2)
T38F0 001:468.921 JLINK_ReadMemEx(0x20000248, 0x2 Bytes, Flags = 0x02000000)
T38F0 001:468.931    -- Read from C cache (2 bytes @ 0x20000248)
T38F0 001:468.940   Data:  02 00
T38F0 001:468.945 - 0.025ms returns 2 (0x2)
T0C58 001:510.374 JLINK_ReadMemEx(0x0800026C, 0x2 Bytes, Flags = 0x02000000)
T0C58 001:510.413    -- Read from C cache (2 bytes @ 0x0800026C)
T0C58 001:510.421   Data:  09 48
T0C58 001:510.429 - 0.057ms returns 2 (0x2)
T0C58 001:510.436 JLINK_HasError()
T0C58 001:510.445 JLINK_SetBPEx(Addr = 0x08006ACE, Type = 0xFFFFFFF2)
T0C58 001:510.455 - 0.012ms returns 0x00000001
T0C58 001:510.462 JLINK_HasError()
T0C58 001:510.467 JLINK_SetBPEx(Addr = 0x08005EB0, Type = 0xFFFFFFF2)
T0C58 001:510.473 - 0.008ms returns 0x00000002
T0C58 001:510.479 JLINK_HasError()
T0C58 001:510.490 JLINK_HasError()
T0C58 001:510.496 JLINK_Go()
T0C58 001:510.533   CPU_WriteMem(4 bytes @ 0xE0002000)
T0C58 001:511.237   CPU_WriteMem(4 bytes @ 0xE0002000)
T0C58 001:511.974   CPU_ReadMem(4 bytes @ 0xE0001000)
T0C58 001:512.612   CPU_WriteMem(4 bytes @ 0xE0002008)
T0C58 001:512.628   CPU_WriteMem(4 bytes @ 0xE000200C)
T0C58 001:512.637   CPU_WriteMem(4 bytes @ 0xE0002010)
T0C58 001:512.645   CPU_WriteMem(4 bytes @ 0xE0002014)
T0C58 001:512.653   CPU_WriteMem(4 bytes @ 0xE0002018)
T0C58 001:512.661   CPU_WriteMem(4 bytes @ 0xE000201C)
T0C58 001:515.109   CPU_WriteMem(4 bytes @ 0xE0001004)
T0C58 001:516.431 - 5.944ms
T0C58 001:617.071 JLINK_HasError()
T0C58 001:617.103 JLINK_IsHalted()
T0C58 001:620.626 - 3.539ms returns TRUE
T0C58 001:620.654 JLINK_HasError()
T0C58 001:620.665 JLINK_Halt()
T0C58 001:620.673 - 0.012ms returns 0x00
T0C58 001:620.683 JLINK_IsHalted()
T0C58 001:620.691 - 0.012ms returns TRUE
T0C58 001:620.701 JLINK_IsHalted()
T0C58 001:620.709 - 0.012ms returns TRUE
T0C58 001:620.719 JLINK_IsHalted()
T0C58 001:620.727 - 0.011ms returns TRUE
T0C58 001:620.737 JLINK_HasError()
T0C58 001:620.796 JLINK_ReadReg(R15 (PC))
T0C58 001:620.821 - 0.028ms returns 0x08006ACE
T0C58 001:620.831 JLINK_ReadReg(XPSR)
T0C58 001:620.839 - 0.012ms returns 0x21000000
T0C58 001:620.853 JLINK_HasError()
T0C58 001:620.863 JLINK_ClrBPEx(BPHandle = 0x00000001)
T0C58 001:620.873 - 0.014ms returns 0x00
T0C58 001:620.883 JLINK_HasError()
T0C58 001:620.892 JLINK_ClrBPEx(BPHandle = 0x00000002)
T0C58 001:620.900 - 0.012ms returns 0x00
T0C58 001:620.910 JLINK_HasError()
T0C58 001:620.919 JLINK_HasError()
T0C58 001:620.929 JLINK_ReadMemU32(0xE000ED30, 0x1 Items)
T0C58 001:620.946   CPU_ReadMem(4 bytes @ 0xE000ED30)
T0C58 001:621.580   Data:  03 00 00 00
T0C58 001:621.594 - 0.668ms returns 1 (0x1)
T0C58 001:621.604 JLINK_ReadMemU32(0xE0001028, 0x1 Items)
T0C58 001:621.616   CPU_ReadMem(4 bytes @ 0xE0001028)
T0C58 001:622.176   Data:  00 00 00 00
T0C58 001:622.194   Debug reg: DWT_FUNC[0]
T0C58 001:622.206 - 0.605ms returns 1 (0x1)
T0C58 001:622.216 JLINK_ReadMemU32(0xE0001038, 0x1 Items)
T0C58 001:622.228   CPU_ReadMem(4 bytes @ 0xE0001038)
T0C58 001:622.832   Data:  00 02 00 00
T0C58 001:622.845   Debug reg: DWT_FUNC[1]
T0C58 001:622.856 - 0.644ms returns 1 (0x1)
T0C58 001:622.867 JLINK_ReadMemU32(0xE0001048, 0x1 Items)
T0C58 001:622.879   CPU_ReadMem(4 bytes @ 0xE0001048)
T0C58 001:623.481   Data:  00 00 00 00
T0C58 001:623.494   Debug reg: DWT_FUNC[2]
T0C58 001:623.505 - 0.642ms returns 1 (0x1)
T0C58 001:623.516 JLINK_ReadMemU32(0xE0001058, 0x1 Items)
T0C58 001:623.527   CPU_ReadMem(4 bytes @ 0xE0001058)
T0C58 001:624.115   Data:  00 00 00 00
T0C58 001:624.139   Debug reg: DWT_FUNC[3]
T0C58 001:624.149 - 0.636ms returns 1 (0x1)
T0C58 001:624.205 JLINK_HasError()
T0C58 001:624.214 JLINK_ReadReg(R0)
T0C58 001:624.225 - 0.014ms returns 0x20003C20
T0C58 001:624.234 JLINK_ReadReg(R1)
T0C58 001:624.242 - 0.011ms returns 0x20003E20
T0C58 001:624.251 JLINK_ReadReg(R2)
T0C58 001:624.259 - 0.011ms returns 0x20003E20
T0C58 001:624.268 JLINK_ReadReg(R3)
T0C58 001:624.276 - 0.011ms returns 0x20003E20
T0C58 001:624.285 JLINK_ReadReg(R4)
T0C58 001:624.292 - 0.011ms returns 0x00000000
T0C58 001:624.301 JLINK_ReadReg(R5)
T0C58 001:624.314 - 0.020ms returns 0x20003BBC
T0C58 001:624.327 JLINK_ReadReg(R6)
T0C58 001:624.335 - 0.011ms returns 0x00000000
T0C58 001:624.344 JLINK_ReadReg(R7)
T0C58 001:624.352 - 0.011ms returns 0x00000000
T0C58 001:624.360 JLINK_ReadReg(R8)
T0C58 001:624.368 - 0.011ms returns 0x00000000
T0C58 001:624.377 JLINK_ReadReg(R9)
T0C58 001:624.385 - 0.011ms returns 0x00000000
T0C58 001:624.393 JLINK_ReadReg(R10)
T0C58 001:624.401 - 0.011ms returns 0x08007AAC
T0C58 001:624.410 JLINK_ReadReg(R11)
T0C58 001:624.417 - 0.011ms returns 0x00000000
T0C58 001:624.426 JLINK_ReadReg(R12)
T0C58 001:624.433 - 0.011ms returns 0x20003BFC
T0C58 001:624.442 JLINK_ReadReg(R13 (SP))
T0C58 001:624.450 - 0.011ms returns 0x20004220
T0C58 001:624.459 JLINK_ReadReg(R14)
T0C58 001:624.466 - 0.011ms returns 0x0800025B
T0C58 001:624.475 JLINK_ReadReg(R15 (PC))
T0C58 001:624.483 - 0.011ms returns 0x08006ACE
T0C58 001:624.492 JLINK_ReadReg(XPSR)
T0C58 001:624.499 - 0.011ms returns 0x21000000
T0C58 001:624.508 JLINK_ReadReg(MSP)
T0C58 001:624.516 - 0.011ms returns 0x20004220
T0C58 001:624.524 JLINK_ReadReg(PSP)
T0C58 001:624.533 - 0.012ms returns 0x00000000
T0C58 001:624.542 JLINK_ReadReg(CFBP)
T0C58 001:624.555 - 0.017ms returns 0x04000000
T0C58 001:624.564 JLINK_ReadReg(FPSCR)
T0C58 001:629.774 - 5.217ms returns 0x03000000
T0C58 001:629.788 JLINK_ReadReg(FPS0)
T0C58 001:629.798 - 0.014ms returns 0x00000000
T0C58 001:629.807 JLINK_ReadReg(FPS1)
T0C58 001:629.815 - 0.011ms returns 0x00000000
T0C58 001:629.824 JLINK_ReadReg(FPS2)
T0C58 001:629.832 - 0.011ms returns 0x00000000
T0C58 001:629.840 JLINK_ReadReg(FPS3)
T0C58 001:629.848 - 0.011ms returns 0x00000000
T0C58 001:629.857 JLINK_ReadReg(FPS4)
T0C58 001:629.865 - 0.011ms returns 0x00000000
T0C58 001:629.873 JLINK_ReadReg(FPS5)
T0C58 001:629.881 - 0.011ms returns 0x00000000
T0C58 001:629.890 JLINK_ReadReg(FPS6)
T0C58 001:629.897 - 0.011ms returns 0x00000000
T0C58 001:629.906 JLINK_ReadReg(FPS7)
T0C58 001:629.914 - 0.011ms returns 0x00000000
T0C58 001:629.922 JLINK_ReadReg(FPS8)
T0C58 001:629.932 - 0.013ms returns 0x00000000
T0C58 001:629.941 JLINK_ReadReg(FPS9)
T0C58 001:629.949 - 0.011ms returns 0x00000000
T0C58 001:629.957 JLINK_ReadReg(FPS10)
T0C58 001:629.965 - 0.011ms returns 0x00000000
T0C58 001:629.974 JLINK_ReadReg(FPS11)
T0C58 001:629.981 - 0.011ms returns 0x00000000
T0C58 001:629.990 JLINK_ReadReg(FPS12)
T0C58 001:629.997 - 0.011ms returns 0x00000000
T0C58 001:630.006 JLINK_ReadReg(FPS13)
T0C58 001:630.013 - 0.011ms returns 0x00000000
T0C58 001:630.025 JLINK_ReadReg(FPS14)
T0C58 001:630.036 - 0.014ms returns 0x00000000
T0C58 001:630.045 JLINK_ReadReg(FPS15)
T0C58 001:630.053 - 0.011ms returns 0x00000000
T0C58 001:630.061 JLINK_ReadReg(FPS16)
T0C58 001:630.069 - 0.011ms returns 0x00000000
T0C58 001:630.077 JLINK_ReadReg(FPS17)
T0C58 001:630.085 - 0.011ms returns 0x00000000
T0C58 001:630.093 JLINK_ReadReg(FPS18)
T0C58 001:630.101 - 0.011ms returns 0x00000000
T0C58 001:630.110 JLINK_ReadReg(FPS19)
T0C58 001:630.117 - 0.011ms returns 0x00000000
T0C58 001:630.126 JLINK_ReadReg(FPS20)
T0C58 001:630.134 - 0.011ms returns 0x00000000
T0C58 001:630.142 JLINK_ReadReg(FPS21)
T0C58 001:630.150 - 0.011ms returns 0x00000000
T0C58 001:630.158 JLINK_ReadReg(FPS22)
T0C58 001:630.166 - 0.011ms returns 0x00000000
T0C58 001:630.175 JLINK_ReadReg(FPS23)
T0C58 001:630.182 - 0.011ms returns 0x00000000
T0C58 001:630.191 JLINK_ReadReg(FPS24)
T0C58 001:630.198 - 0.011ms returns 0x00000000
T0C58 001:630.207 JLINK_ReadReg(FPS25)
T0C58 001:630.215 - 0.011ms returns 0x00000000
T0C58 001:630.223 JLINK_ReadReg(FPS26)
T0C58 001:630.231 - 0.011ms returns 0x00000000
T0C58 001:630.239 JLINK_ReadReg(FPS27)
T0C58 001:630.247 - 0.011ms returns 0x00000000
T0C58 001:630.255 JLINK_ReadReg(FPS28)
T0C58 001:630.263 - 0.011ms returns 0x00000000
T0C58 001:630.272 JLINK_ReadReg(FPS29)
T0C58 001:630.279 - 0.011ms returns 0x00000000
T0C58 001:630.288 JLINK_ReadReg(FPS30)
T0C58 001:630.295 - 0.011ms returns 0x00000000
T0C58 001:630.304 JLINK_ReadReg(FPS31)
T0C58 001:630.314 - 0.014ms returns 0x00000000
T38F0 001:630.900 JLINK_ReadMemEx(0x20004218, 0x2 Bytes, Flags = 0x02000000)
T38F0 001:630.937   CPU_ReadMem(64 bytes @ 0x20004200)
T38F0 001:632.176    -- Updating C cache (64 bytes @ 0x20004200)
T38F0 001:632.192    -- Read from C cache (2 bytes @ 0x20004218)
T38F0 001:632.203   Data:  00 00
T38F0 001:632.214 - 1.318ms returns 2 (0x2)
T38F0 001:632.797 JLINK_ReadMemEx(0x20004218, 0x2 Bytes, Flags = 0x02000000)
T38F0 001:632.817    -- Read from C cache (2 bytes @ 0x20004218)
T38F0 001:632.830   Data:  00 00
T38F0 001:632.842 - 0.049ms returns 2 (0x2)
T38F0 001:635.508 JLINK_ReadMemEx(0x200001BC, 0x4 Bytes, Flags = 0x02000000)
T38F0 001:635.532   CPU_ReadMem(64 bytes @ 0x20000180)
T38F0 001:636.809    -- Updating C cache (64 bytes @ 0x20000180)
T38F0 001:636.818    -- Read from C cache (4 bytes @ 0x200001BC)
T38F0 001:636.826   Data:  00 00 00 00
T38F0 001:636.833 - 1.328ms returns 4 (0x4)
T38F0 001:639.381 JLINK_ReadMemEx(0x20000248, 0x2 Bytes, Flags = 0x02000000)
T38F0 001:639.401   CPU_ReadMem(64 bytes @ 0x20000240)
T38F0 001:640.666    -- Updating C cache (64 bytes @ 0x20000240)
T38F0 001:640.673    -- Read from C cache (2 bytes @ 0x20000248)
T38F0 001:640.680   Data:  00 00
T38F0 001:640.686 - 1.307ms returns 2 (0x2)
T38F0 001:641.358 JLINK_ReadMemEx(0x08006ACE, 0x2 Bytes, Flags = 0x02000000)
T38F0 001:641.370   CPU_ReadMem(64 bytes @ 0x08006AC0)
T38F0 001:642.598    -- Updating C cache (64 bytes @ 0x08006AC0)
T38F0 001:642.605    -- Read from C cache (2 bytes @ 0x08006ACE)
T38F0 001:642.611   Data:  08 B5
T38F0 001:642.616 - 1.260ms returns 2 (0x2)
T38F0 001:642.622 JLINK_ReadMemEx(0x08006AD0, 0x3C Bytes, Flags = 0x02000000)
T38F0 001:642.627   CPU_ReadMem(64 bytes @ 0x08006B00)
T38F0 001:643.987    -- Updating C cache (64 bytes @ 0x08006B00)
T38F0 001:644.004    -- Read from C cache (60 bytes @ 0x08006AD0)
T38F0 001:644.016   Data:  00 24 B4 20 FF F7 54 FF 68 46 FB F7 AD FA 00 BF ...
T38F0 001:644.024 - 1.405ms returns 60 (0x3C)
T38F0 001:644.033 JLINK_ReadMemEx(0x08006AD0, 0x2 Bytes, Flags = 0x02000000)
T38F0 001:644.041    -- Read from C cache (2 bytes @ 0x08006AD0)
T38F0 001:644.049   Data:  00 24
T38F0 001:644.057 - 0.026ms returns 2 (0x2)
T38F0 001:644.075 JLINK_ReadMemEx(0x08006AD0, 0x3C Bytes, Flags = 0x02000000)
T38F0 001:644.082    -- Read from C cache (60 bytes @ 0x08006AD0)
T38F0 001:644.091   Data:  00 24 B4 20 FF F7 54 FF 68 46 FB F7 AD FA 00 BF ...
T38F0 001:644.099 - 0.026ms returns 60 (0x3C)
T38F0 001:644.105 JLINK_ReadMemEx(0x08006AD0, 0x2 Bytes, Flags = 0x02000000)
T38F0 001:644.112    -- Read from C cache (2 bytes @ 0x08006AD0)
T38F0 001:644.120   Data:  00 24
T38F0 001:644.128 - 0.025ms returns 2 (0x2)
T38F0 001:644.135 JLINK_ReadMemEx(0x08006AD2, 0x2 Bytes, Flags = 0x02000000)
T38F0 001:644.141    -- Read from C cache (2 bytes @ 0x08006AD2)
T38F0 001:644.149   Data:  B4 20
T38F0 001:644.157 - 0.024ms returns 2 (0x2)
T3968 009:391.490 Looking for J-Link GUI Server exe at: C:\Keil_v5\ARM\Segger\JLinkGUIServer.exe
T3968 009:391.645 Looking for J-Link GUI Server exe at: C:\Program Files (x86)\SEGGER\JLink_V634g\\JLinkGUIServer.exe
T3968 009:692.498 Failed to connect to J-Link GUI Server.
T0C58 012:742.944 JLINK_ReadMemEx(0x08006ACE, 0x2 Bytes, Flags = 0x02000000)
T0C58 012:742.982    -- Read from C cache (2 bytes @ 0x08006ACE)
T0C58 012:742.993   Data:  08 B5
T0C58 012:743.004 - 0.063ms returns 2 (0x2)
T0C58 012:743.014 JLINK_HasError()
T0C58 012:743.025 JLINK_SetBPEx(Addr = 0x08005EB0, Type = 0xFFFFFFF2)
T0C58 012:743.040 - 0.018ms returns 0x00000003
T0C58 012:743.049 JLINK_HasError()
T0C58 012:743.057 JLINK_HasError()
T0C58 012:743.065 JLINK_Go()
T0C58 012:743.730   CPU_WriteMem(4 bytes @ 0xE0002000)
T0C58 012:744.431   CPU_ReadMem(4 bytes @ 0xE0001000)
T0C58 012:744.979   CPU_WriteMem(4 bytes @ 0xE0002008)
T0C58 012:744.998   CPU_WriteMem(4 bytes @ 0xE000200C)
T0C58 012:747.362 - 4.345ms
T0C58 012:847.871 JLINK_HasError()
T0C58 012:847.927 JLINK_IsHalted()
T0C58 012:848.630 - 0.796ms returns FALSE
T0C58 012:949.664 JLINK_HasError()
T0C58 012:949.685 JLINK_IsHalted()
T0C58 012:950.192 - 0.516ms returns FALSE
T0C58 013:050.468 JLINK_HasError()
T0C58 013:050.504 JLINK_IsHalted()
T0C58 013:051.019 - 0.524ms returns FALSE
T0C58 013:152.045 JLINK_HasError()
T0C58 013:152.220 JLINK_IsHalted()
T0C58 013:152.952 - 0.752ms returns FALSE
T0C58 013:253.141 JLINK_HasError()
T0C58 013:253.186 JLINK_IsHalted()
T0C58 013:253.813 - 0.647ms returns FALSE
T0C58 013:354.668 JLINK_HasError()
T0C58 013:354.720 JLINK_HasError()
T0C58 013:354.725 JLINK_ReadMemU32(0xE0001004, 0x1 Items)
T0C58 013:354.756   CPU_ReadMem(4 bytes @ 0xE0001004)
T0C58 013:355.291   Data:  76 6F 17 06
T0C58 013:355.312   Debug reg: DWT_CYCCNT
T0C58 013:355.317 - 0.594ms returns 1 (0x1)
T38F0 013:357.074 JLINK_ReadMemEx(0x200001BC, 0x4 Bytes, Flags = 0x02000000)
T38F0 013:357.092   CPU_ReadMem(4 bytes @ 0x200001BC)
T38F0 013:357.644   Data:  00 00 00 00
T38F0 013:357.671 - 0.600ms returns 4 (0x4)
T38F0 013:360.521 JLINK_ReadMemEx(0x20000248, 0x2 Bytes, Flags = 0x02000000)
T38F0 013:360.561   CPU_ReadMem(2 bytes @ 0x20000248)
T38F0 013:361.240   Data:  00 00
T38F0 013:361.254 - 0.734ms returns 2 (0x2)
T0C58 013:362.771 JLINK_IsHalted()
T0C58 013:363.332 - 0.569ms returns FALSE
T0C58 013:464.166 JLINK_HasError()
T0C58 013:464.209 JLINK_IsHalted()
T0C58 013:464.602 - 0.420ms returns FALSE
T0C58 013:565.579 JLINK_HasError()
T0C58 013:565.605 JLINK_IsHalted()
T0C58 013:566.105 - 0.509ms returns FALSE
T0C58 013:666.657 JLINK_HasError()
T0C58 013:666.706 JLINK_IsHalted()
T0C58 013:667.340 - 0.652ms returns FALSE
T0C58 013:768.507 JLINK_HasError()
T0C58 013:768.582 JLINK_IsHalted()
T0C58 013:769.211 - 0.638ms returns FALSE
T0C58 013:869.899 JLINK_HasError()
T0C58 013:869.940 JLINK_HasError()
T0C58 013:869.946 JLINK_ReadMemU32(0xE0001004, 0x1 Items)
T0C58 013:869.962   Data:  76 6F 17 06
T0C58 013:869.970   Debug reg: DWT_CYCCNT
T0C58 013:869.975 - 0.031ms returns 1 (0x1)
T38F0 013:871.663 JLINK_ReadMemEx(0x200001BC, 0x4 Bytes, Flags = 0x02000000)
T38F0 013:871.683   CPU_ReadMem(4 bytes @ 0x200001BC)
T38F0 013:872.283   Data:  00 00 00 00
T38F0 013:872.294 - 0.633ms returns 4 (0x4)
T38F0 013:874.344 JLINK_ReadMemEx(0x20000248, 0x2 Bytes, Flags = 0x02000000)
T38F0 013:874.359   CPU_ReadMem(2 bytes @ 0x20000248)
T38F0 013:874.928   Data:  00 00
T38F0 013:874.952 - 0.610ms returns 2 (0x2)
T0C58 013:875.581 JLINK_IsHalted()
T0C58 013:876.156 - 0.596ms returns FALSE
T0C58 013:976.309 JLINK_HasError()
T0C58 013:976.333 JLINK_IsHalted()
T0C58 013:976.758 - 0.434ms returns FALSE
T0C58 014:077.051 JLINK_HasError()
T0C58 014:077.083 JLINK_IsHalted()
T0C58 014:077.689 - 0.614ms returns FALSE
T0C58 014:178.696 JLINK_HasError()
T0C58 014:178.734 JLINK_IsHalted()
T0C58 014:179.270 - 0.549ms returns FALSE
T0C58 014:280.333 JLINK_HasError()
T0C58 014:280.374 JLINK_IsHalted()
T0C58 014:280.939 - 0.575ms returns FALSE
T0C58 014:382.013 JLINK_HasError()
T0C58 014:382.038 JLINK_HasError()
T0C58 014:382.043 JLINK_ReadMemU32(0xE0001004, 0x1 Items)
T0C58 014:382.060   Data:  76 6F 17 06
T0C58 014:382.068   Debug reg: DWT_CYCCNT
T0C58 014:382.074 - 0.032ms returns 1 (0x1)
T38F0 014:384.848 JLINK_ReadMemEx(0x200001BC, 0x4 Bytes, Flags = 0x02000000)
T38F0 014:384.899   CPU_ReadMem(4 bytes @ 0x200001BC)
T38F0 014:385.599   Data:  00 00 00 00
T38F0 014:385.615 - 0.769ms returns 4 (0x4)
T38F0 014:388.437 JLINK_ReadMemEx(0x20000248, 0x2 Bytes, Flags = 0x02000000)
T38F0 014:388.458   CPU_ReadMem(2 bytes @ 0x20000248)
T38F0 014:389.015   Data:  00 00
T38F0 014:389.027 - 0.592ms returns 2 (0x2)
T0C58 014:389.646 JLINK_IsHalted()
T0C58 014:390.257 - 0.618ms returns FALSE
T0C58 014:490.632 JLINK_HasError()
T0C58 014:490.664 JLINK_IsHalted()
T0C58 014:491.335 - 0.679ms returns FALSE
T0C58 014:592.288 JLINK_HasError()
T0C58 014:592.339 JLINK_IsHalted()
T0C58 014:592.981 - 0.651ms returns FALSE
T0C58 014:693.956 JLINK_HasError()
T0C58 014:694.001 JLINK_IsHalted()
T0C58 014:694.484 - 0.497ms returns FALSE
T0C58 014:795.257 JLINK_HasError()
T0C58 014:795.291 JLINK_IsHalted()
T0C58 014:795.801 - 0.519ms returns FALSE
T0C58 014:895.954 JLINK_HasError()
T0C58 014:895.984 JLINK_HasError()
T0C58 014:895.990 JLINK_ReadMemU32(0xE0001004, 0x1 Items)
T0C58 014:896.009   Data:  76 6F 17 06
T0C58 014:896.018   Debug reg: DWT_CYCCNT
T0C58 014:896.026 - 0.038ms returns 1 (0x1)
T38F0 014:897.694 JLINK_ReadMemEx(0x200001BC, 0x4 Bytes, Flags = 0x02000000)
T38F0 014:897.713   CPU_ReadMem(4 bytes @ 0x200001BC)
T38F0 014:898.313   Data:  00 00 00 00
T38F0 014:898.332 - 0.641ms returns 4 (0x4)
T38F0 014:900.783 JLINK_ReadMemEx(0x20000248, 0x2 Bytes, Flags = 0x02000000)
T38F0 014:900.803   CPU_ReadMem(2 bytes @ 0x20000248)
T38F0 014:901.474   Data:  00 00
T38F0 014:901.490 - 0.710ms returns 2 (0x2)
T0C58 014:902.270 JLINK_IsHalted()
T0C58 014:902.644 - 0.385ms returns FALSE
T0C58 015:003.555 JLINK_HasError()
T0C58 015:003.578 JLINK_IsHalted()
T0C58 015:004.107 - 0.536ms returns FALSE
T0C58 015:104.287 JLINK_HasError()
T0C58 015:104.322 JLINK_IsHalted()
T0C58 015:104.752 - 0.440ms returns FALSE
T0C58 015:205.026 JLINK_HasError()
T0C58 015:205.075 JLINK_IsHalted()
T0C58 015:205.591 - 0.524ms returns FALSE
T0C58 015:306.668 JLINK_HasError()
T0C58 015:306.698 JLINK_IsHalted()
T0C58 015:307.261 - 0.573ms returns FALSE
T0C58 015:408.288 JLINK_HasError()
T0C58 015:408.332 JLINK_HasError()
T0C58 015:408.346 JLINK_ReadMemU32(0xE0001004, 0x1 Items)
T0C58 015:408.365   Data:  76 6F 17 06
T0C58 015:408.374   Debug reg: DWT_CYCCNT
T0C58 015:408.382 - 0.039ms returns 1 (0x1)
T38F0 015:410.286 JLINK_ReadMemEx(0x200001BC, 0x4 Bytes, Flags = 0x02000000)
T38F0 015:410.317   CPU_ReadMem(4 bytes @ 0x200001BC)
T38F0 015:411.007   Data:  00 00 00 00
T38F0 015:411.022 - 0.739ms returns 4 (0x4)
T38F0 015:413.602 JLINK_ReadMemEx(0x20000248, 0x2 Bytes, Flags = 0x02000000)
T38F0 015:413.619   CPU_ReadMem(2 bytes @ 0x20000248)
T38F0 015:414.294   Data:  00 00
T38F0 015:414.311 - 0.712ms returns 2 (0x2)
T0C58 015:415.086 JLINK_IsHalted()
T0C58 015:415.681 - 0.602ms returns FALSE
T0C58 015:515.938 JLINK_HasError()
T0C58 015:515.969 JLINK_IsHalted()
T0C58 015:516.464 - 0.504ms returns FALSE
T0C58 015:617.209 JLINK_HasError()
T0C58 015:617.249 JLINK_IsHalted()
T0C58 015:617.833 - 0.594ms returns FALSE
T0C58 015:718.901 JLINK_HasError()
T0C58 015:718.935 JLINK_IsHalted()
T0C58 015:719.556 - 0.630ms returns FALSE
T0C58 015:820.530 JLINK_HasError()
T0C58 015:820.557 JLINK_IsHalted()
T0C58 015:820.973 - 0.444ms returns FALSE
T0C58 015:921.198 JLINK_HasError()
T0C58 015:921.230 JLINK_HasError()
T0C58 015:921.237 JLINK_ReadMemU32(0xE0001004, 0x1 Items)
T0C58 015:921.257   Data:  76 6F 17 06
T0C58 015:921.266   Debug reg: DWT_CYCCNT
T0C58 015:921.274 - 0.039ms returns 1 (0x1)
T38F0 015:922.792 JLINK_ReadMemEx(0x200001BC, 0x4 Bytes, Flags = 0x02000000)
T38F0 015:922.809   CPU_ReadMem(4 bytes @ 0x200001BC)
T38F0 015:923.396   Data:  00 00 00 00
T38F0 015:923.419 - 0.629ms returns 4 (0x4)
T38F0 015:926.258 JLINK_ReadMemEx(0x20000248, 0x2 Bytes, Flags = 0x02000000)
T38F0 015:926.281   CPU_ReadMem(2 bytes @ 0x20000248)
T38F0 015:926.912   Data:  00 00
T38F0 015:926.940 - 0.684ms returns 2 (0x2)
T0C58 015:927.688 JLINK_IsHalted()
T0C58 015:928.300 - 0.620ms returns FALSE
T0C58 016:029.113 JLINK_HasError()
T0C58 016:029.146 JLINK_IsHalted()
T0C58 016:029.751 - 0.614ms returns FALSE
T0C58 016:130.535 JLINK_HasError()
T0C58 016:130.577 JLINK_IsHalted()
T0C58 016:133.868 - 3.308ms returns TRUE
T0C58 016:133.891 JLINK_HasError()
T0C58 016:133.897 JLINK_Halt()
T0C58 016:133.901 - 0.006ms returns 0x00
T0C58 016:133.906 JLINK_IsHalted()
T0C58 016:133.910 - 0.005ms returns TRUE
T0C58 016:133.915 JLINK_IsHalted()
T0C58 016:133.918 - 0.005ms returns TRUE
T0C58 016:133.923 JLINK_IsHalted()
T0C58 016:133.927 - 0.005ms returns TRUE
T0C58 016:133.932 JLINK_HasError()
T0C58 016:133.937 JLINK_ReadReg(R15 (PC))
T0C58 016:133.943 - 0.008ms returns 0x08005EB0
T0C58 016:133.948 JLINK_ReadReg(XPSR)
T0C58 016:133.956 - 0.012ms returns 0x41000037
T0C58 016:133.968 JLINK_HasError()
T0C58 016:133.973 JLINK_ClrBPEx(BPHandle = 0x00000003)
T0C58 016:133.977 - 0.006ms returns 0x00
T0C58 016:133.982 JLINK_HasError()
T0C58 016:133.987 JLINK_HasError()
T0C58 016:133.992 JLINK_ReadMemU32(0xE000ED30, 0x1 Items)
T0C58 016:134.001   CPU_ReadMem(4 bytes @ 0xE000ED30)
T0C58 016:134.545   Data:  03 00 00 00
T0C58 016:134.557 - 0.568ms returns 1 (0x1)
T0C58 016:134.571 JLINK_ReadMemU32(0xE0001028, 0x1 Items)
T0C58 016:134.581   CPU_ReadMem(4 bytes @ 0xE0001028)
T0C58 016:135.089   Data:  00 00 00 00
T0C58 016:135.105   Debug reg: DWT_FUNC[0]
T0C58 016:135.111 - 0.541ms returns 1 (0x1)
T0C58 016:135.117 JLINK_ReadMemU32(0xE0001038, 0x1 Items)
T0C58 016:135.126   CPU_ReadMem(4 bytes @ 0xE0001038)
T0C58 016:135.702   Data:  00 02 00 00
T0C58 016:135.715   Debug reg: DWT_FUNC[1]
T0C58 016:135.724 - 0.610ms returns 1 (0x1)
T0C58 016:135.732 JLINK_ReadMemU32(0xE0001048, 0x1 Items)
T0C58 016:135.740   CPU_ReadMem(4 bytes @ 0xE0001048)
T0C58 016:136.350   Data:  00 00 00 00
T0C58 016:136.362   Debug reg: DWT_FUNC[2]
T0C58 016:136.369 - 0.639ms returns 1 (0x1)
T0C58 016:136.376 JLINK_ReadMemU32(0xE0001058, 0x1 Items)
T0C58 016:136.395   CPU_ReadMem(4 bytes @ 0xE0001058)
T0C58 016:136.957   Data:  00 00 00 00
T0C58 016:136.970   Debug reg: DWT_FUNC[3]
T0C58 016:136.976 - 0.602ms returns 1 (0x1)
T0C58 016:137.027 JLINK_HasError()
T0C58 016:137.033 JLINK_ReadReg(R0)
T0C58 016:137.040 - 0.009ms returns 0x00000000
T0C58 016:137.046 JLINK_ReadReg(R1)
T0C58 016:137.050 - 0.006ms returns 0x00000008
T0C58 016:137.055 JLINK_ReadReg(R2)
T0C58 016:137.060 - 0.006ms returns 0x40004800
T0C58 016:137.065 JLINK_ReadReg(R3)
T0C58 016:137.071 - 0.010ms returns 0x00000000
T0C58 016:137.078 JLINK_ReadReg(R4)
T0C58 016:137.081 - 0.005ms returns 0x000039FD
T0C58 016:137.086 JLINK_ReadReg(R5)
T0C58 016:137.090 - 0.006ms returns 0x00003A00
T0C58 016:137.095 JLINK_ReadReg(R6)
T0C58 016:137.098 - 0.005ms returns 0x000007C7
T0C58 016:137.103 JLINK_ReadReg(R7)
T0C58 016:137.107 - 0.005ms returns 0x000000C8
T0C58 016:137.112 JLINK_ReadReg(R8)
T0C58 016:137.116 - 0.006ms returns 0x00001130
T0C58 016:137.120 JLINK_ReadReg(R9)
T0C58 016:137.124 - 0.005ms returns 0x000057E4
T0C58 016:137.129 JLINK_ReadReg(R10)
T0C58 016:137.133 - 0.005ms returns 0x10101010
T0C58 016:137.137 JLINK_ReadReg(R11)
T0C58 016:137.141 - 0.006ms returns 0x11111111
T0C58 016:137.146 JLINK_ReadReg(R12)
T0C58 016:137.150 - 0.006ms returns 0x00000150
T0C58 016:137.155 JLINK_ReadReg(R13 (SP))
T0C58 016:137.159 - 0.006ms returns 0x200027B8
T0C58 016:137.164 JLINK_ReadReg(R14)
T0C58 016:137.168 - 0.006ms returns 0x08005EA1
T0C58 016:137.172 JLINK_ReadReg(R15 (PC))
T0C58 016:137.177 - 0.006ms returns 0x08005EB0
T0C58 016:137.181 JLINK_ReadReg(XPSR)
T0C58 016:137.185 - 0.006ms returns 0x41000037
T0C58 016:137.190 JLINK_ReadReg(MSP)
T0C58 016:137.194 - 0.006ms returns 0x200027B8
T0C58 016:137.198 JLINK_ReadReg(PSP)
T0C58 016:137.203 - 0.008ms returns 0x20000800
T0C58 016:137.210 JLINK_ReadReg(CFBP)
T0C58 016:137.214 - 0.006ms returns 0x00000000
T0C58 016:137.219 JLINK_ReadReg(FPSCR)
T0C58 016:142.220 - 5.026ms returns 0x00000000
T0C58 016:142.251 JLINK_ReadReg(FPS0)
T0C58 016:142.258 - 0.009ms returns 0x00000000
T0C58 016:142.264 JLINK_ReadReg(FPS1)
T0C58 016:142.268 - 0.006ms returns 0x00000001
T0C58 016:142.273 JLINK_ReadReg(FPS2)
T0C58 016:142.278 - 0.006ms returns 0x00000002
T0C58 016:142.283 JLINK_ReadReg(FPS3)
T0C58 016:142.287 - 0.006ms returns 0x00000003
T0C58 016:142.292 JLINK_ReadReg(FPS4)
T0C58 016:142.297 - 0.006ms returns 0x00000004
T0C58 016:142.302 JLINK_ReadReg(FPS5)
T0C58 016:142.306 - 0.006ms returns 0x00000005
T0C58 016:142.311 JLINK_ReadReg(FPS6)
T0C58 016:142.317 - 0.008ms returns 0x00000006
T0C58 016:142.322 JLINK_ReadReg(FPS7)
T0C58 016:142.327 - 0.006ms returns 0x00000007
T0C58 016:142.332 JLINK_ReadReg(FPS8)
T0C58 016:142.336 - 0.007ms returns 0x00000008
T0C58 016:142.343 JLINK_ReadReg(FPS9)
T0C58 016:142.354 - 0.015ms returns 0x00000009
T0C58 016:142.361 JLINK_ReadReg(FPS10)
T0C58 016:142.366 - 0.006ms returns 0x00000010
T0C58 016:142.371 JLINK_ReadReg(FPS11)
T0C58 016:142.375 - 0.006ms returns 0x00000011
T0C58 016:142.380 JLINK_ReadReg(FPS12)
T0C58 016:142.386 - 0.007ms returns 0x00000012
T0C58 016:142.390 JLINK_ReadReg(FPS13)
T0C58 016:142.394 - 0.005ms returns 0x00000013
T0C58 016:142.400 JLINK_ReadReg(FPS14)
T0C58 016:142.419 - 0.021ms returns 0x00000014
T0C58 016:142.425 JLINK_ReadReg(FPS15)
T0C58 016:142.429 - 0.006ms returns 0x00000015
T0C58 016:142.434 JLINK_ReadReg(FPS16)
T0C58 016:142.439 - 0.006ms returns 0x00000016
T0C58 016:142.444 JLINK_ReadReg(FPS17)
T0C58 016:142.448 - 0.006ms returns 0x00000017
T0C58 016:142.453 JLINK_ReadReg(FPS18)
T0C58 016:142.458 - 0.006ms returns 0x00000018
T0C58 016:142.463 JLINK_ReadReg(FPS19)
T0C58 016:142.467 - 0.006ms returns 0x00000019
T0C58 016:142.472 JLINK_ReadReg(FPS20)
T0C58 016:142.477 - 0.007ms returns 0x00000020
T0C58 016:142.483 JLINK_ReadReg(FPS21)
T0C58 016:142.487 - 0.006ms returns 0x00000021
T0C58 016:142.491 JLINK_ReadReg(FPS22)
T0C58 016:142.496 - 0.006ms returns 0x00000022
T0C58 016:142.500 JLINK_ReadReg(FPS23)
T0C58 016:142.504 - 0.005ms returns 0x00000023
T0C58 016:142.509 JLINK_ReadReg(FPS24)
T0C58 016:142.513 - 0.006ms returns 0x00000024
T0C58 016:142.519 JLINK_ReadReg(FPS25)
T0C58 016:142.523 - 0.006ms returns 0x00000025
T0C58 016:142.529 JLINK_ReadReg(FPS26)
T0C58 016:142.533 - 0.006ms returns 0x00000026
T0C58 016:142.538 JLINK_ReadReg(FPS27)
T0C58 016:142.543 - 0.006ms returns 0x00000027
T0C58 016:142.548 JLINK_ReadReg(FPS28)
T0C58 016:142.552 - 0.006ms returns 0x00000028
T0C58 016:142.557 JLINK_ReadReg(FPS29)
T0C58 016:142.562 - 0.006ms returns 0x00000029
T0C58 016:142.567 JLINK_ReadReg(FPS30)
T0C58 016:142.575 - 0.010ms returns 0x00000030
T0C58 016:142.580 JLINK_ReadReg(FPS31)
T0C58 016:142.584 - 0.005ms returns 0x00000031
T38F0 016:142.877 JLINK_ReadMemEx(0x200027E4, 0x4 Bytes, Flags = 0x02000000)
T38F0 016:142.911   CPU_ReadMem(64 bytes @ 0x200027C0)
T38F0 016:144.070    -- Updating C cache (64 bytes @ 0x200027C0)
T38F0 016:144.085    -- Read from C cache (4 bytes @ 0x200027E4)
T38F0 016:144.092   Data:  ED FF FF FF
T38F0 016:144.111 - 1.236ms returns 4 (0x4)
T38F0 016:144.122 JLINK_ReadMemEx(0x20000818, 0x4 Bytes, Flags = 0x02000000)
T38F0 016:144.138   CPU_ReadMem(64 bytes @ 0x20000800)
T38F0 016:145.326    -- Updating C cache (64 bytes @ 0x20000800)
T38F0 016:145.349    -- Read from C cache (4 bytes @ 0x20000818)
T38F0 016:145.361   Data:  74 6A 00 08
T38F0 016:145.367 - 1.247ms returns 4 (0x4)
T38F0 016:145.376 JLINK_ReadMemEx(0x2000081C, 0x4 Bytes, Flags = 0x02000000)
T38F0 016:145.383    -- Read from C cache (4 bytes @ 0x2000081C)
T38F0 016:145.390   Data:  00 00 00 81
T38F0 016:145.396 - 0.022ms returns 4 (0x4)
T38F0 016:145.401 JLINK_ReadMemEx(0x20000814, 0x4 Bytes, Flags = 0x02000000)
T38F0 016:145.407    -- Read from C cache (4 bytes @ 0x20000814)
T38F0 016:145.413   Data:  C9 23 00 08
T38F0 016:145.419 - 0.019ms returns 4 (0x4)
T38F0 016:145.424 JLINK_ReadMemEx(0xE000ED28, 0x4 Bytes, Flags = 0x02000000)
T38F0 016:145.431   CPU_ReadMem(4 bytes @ 0xE000ED28)
T38F0 016:146.081   Data:  00 00 00 00
T38F0 016:146.092 - 0.670ms returns 4 (0x4)
T38F0 016:146.311 JLINK_ReadMemEx(0x2000084C, 0x4 Bytes, Flags = 0x02000000)
T38F0 016:146.334   CPU_ReadMem(64 bytes @ 0x20000840)
T38F0 016:147.501    -- Updating C cache (64 bytes @ 0x20000840)
T38F0 016:147.514    -- Read from C cache (4 bytes @ 0x2000084C)
T38F0 016:147.521   Data:  4F 6B 00 08
T38F0 016:147.530 - 1.222ms returns 4 (0x4)
T38F0 016:147.538 JLINK_ReadMemEx(0x20000850, 0x4 Bytes, Flags = 0x02000000)
T38F0 016:147.546    -- Read from C cache (4 bytes @ 0x20000850)
T38F0 016:147.552   Data:  68 08 00 20
T38F0 016:147.557 - 0.020ms returns 4 (0x4)
T38F0 016:147.562 JLINK_ReadMemEx(0x20000854, 0x4 Bytes, Flags = 0x02000000)
T38F0 016:147.567    -- Read from C cache (4 bytes @ 0x20000854)
T38F0 016:147.572   Data:  BF 23 00 08
T38F0 016:147.582 - 0.022ms returns 4 (0x4)
T38F0 016:147.587 JLINK_ReadMemEx(0x20000858, 0x4 Bytes, Flags = 0x02000000)
T38F0 016:147.592    -- Read from C cache (4 bytes @ 0x20000858)
T38F0 016:147.598   Data:  00 00 00 00
T38F0 016:147.603 - 0.017ms returns 4 (0x4)
T38F0 016:147.608 JLINK_ReadMemEx(0x2000085C, 0x4 Bytes, Flags = 0x02000000)
T38F0 016:147.612    -- Read from C cache (4 bytes @ 0x2000085C)
T38F0 016:147.618   Data:  00 00 00 00
T38F0 016:147.623 - 0.017ms returns 4 (0x4)
T38F0 016:147.628 JLINK_ReadMemEx(0x20000860, 0x4 Bytes, Flags = 0x02000000)
T38F0 016:147.633    -- Read from C cache (4 bytes @ 0x20000860)
T38F0 016:147.638   Data:  00 00 00 00
T38F0 016:147.644 - 0.017ms returns 4 (0x4)
T38F0 016:147.648 JLINK_ReadMemEx(0x20000864, 0x4 Bytes, Flags = 0x02000000)
T38F0 016:147.653    -- Read from C cache (4 bytes @ 0x20000864)
T38F0 016:147.659   Data:  65 6A 00 08
T38F0 016:147.664 - 0.017ms returns 4 (0x4)
T38F0 016:147.669 JLINK_ReadMemEx(0x20000868, 0x4 Bytes, Flags = 0x02000000)
T38F0 016:147.673    -- Read from C cache (4 bytes @ 0x20000868)
T38F0 016:147.679   Data:  00 00 00 40
T38F0 016:147.684 - 0.017ms returns 4 (0x4)
T38F0 016:147.691 JLINK_ReadMemEx(0x20000888, 0x4 Bytes, Flags = 0x02000000)
T38F0 016:147.697   CPU_ReadMem(64 bytes @ 0x20000880)
T38F0 016:148.903    -- Updating C cache (64 bytes @ 0x20000880)
T38F0 016:148.915    -- Read from C cache (4 bytes @ 0x20000888)
T38F0 016:148.921   Data:  00 00 00 00
T38F0 016:148.927 - 1.238ms returns 4 (0x4)
T38F0 016:151.056 JLINK_ReadMemEx(0x200001BC, 0x4 Bytes, Flags = 0x02000000)
T38F0 016:151.072   CPU_ReadMem(64 bytes @ 0x20000180)
T38F0 016:152.344    -- Updating C cache (64 bytes @ 0x20000180)
T38F0 016:152.357    -- Read from C cache (4 bytes @ 0x200001BC)
T38F0 016:152.364   Data:  00 00 00 00
